EC-Lab ASCII FILE
Nb header lines : 63                          

Potentio Electrochemical Impedance Spectroscopy

Run on channel : 1 (SN 51265)
User : 
CE vs. WE compliance from -10 V to 10 V
Electrode connection : standard
Potential control : Ewe
Ewe ctrl range : min = -10.00 V, max = 10.00 V
Safety Limits :
	Do not start on E overload
Acquisition started on : 01/10/2024 22:43:12.135
Loaded Setting File :  D:\Manju\2024_01_05\GMTE-38_IP_Uncomp_1.5_SD_1_GF_AG_PVDF_94_6_500mM_TBATFSI_EC_EMC_3_7_5608us_10mV_200kHz_1mHz_Cell 1_25deg_C01.mpr
Saved on :
	File : GMTE-44_IP_Uncomp_1.5_SD_1_GF_AG_PVDF_94_6_500mM_TBAPF6_EC_EMC_3_7_5167us_10mV_200kHz_0.1mHz_Cell 9_25deg_C01.mpr
	Directory : D:\Manju\2024_01_08\
	Host : 192.168.0.10
Device : VSP-3e (SN .003361)
Address : 192.168.0.1
EC-Lab for windows v11.52 (software)
Internet server v11.52 (firmware)
Command interpretor v11.50 (firmware)
Electrode material : 
Initial state : 
Electrolyte : 
Comments : 
Electrode surface area : 0.001 cm²
Characteristic mass : 0.001 g
Equivalent Weight : 0.000 g/eq.
Density : 0.000 g/cm3
Volume (V) : 0.001 cm³
Cycle Definition : Charge/Discharge alternance
Mode                Single sine         
E (V)               0.0000              
vs.                 Eoc                 
tE (h:m:s)          0:00:0.0000         
record              0                   
dI                  0.000               
unit dI             mA                  
dt (s)              0.000               
fi                  200.000             
unit fi             kHz                 
ff                  1.000               
unit ff             mHz                 
Nd                  10                  
Points              per decade          
spacing             Logarithmic         
Va (mV)             10.0                
pw                  3.00                
Na                  5                   
corr                0                   
E range min (V)     -10.000             
E range max (V)     10.000              
I Range             Auto                
Bandwidth           5                   
nc cycles           0                   
goto Ns'            0                   
nr cycles           0                   
inc. cycle          0                   

freq/Hz	Re(Z)/Ohm	-Im(Z)/Ohm	|Z|/Ohm	Phase(Z)/deg	time/s	<Ewe>/V	<I>/mA	Cs/µF	Cp/µF	cycle number	I Range	|Ewe|/V	|I|/A	Ns	(Q-Qo)/mA.h	Re(Y)/Ohm-1	Im(Y)/Ohm-1	|Y|/Ohm-1	Phase(Y)/deg	Re(C)/nF	Im(C)/nF	|C|/nF	Phase(C)/deg	Re(M)	Im(M)	|M|	Phase(M)/deg	Re(Permittivity)	Im(Permittivity)	|Permittivity|	Phase(Permittivity)/deg	Re(Resistivity)/Ohm.cm	Im(Resistivity)/Ohm.cm	|Resistivity|/Ohm.cm	Phase(Resistivity)/deg	Re(Conductivity)/mS/cm	Im(Conductivity)/mS/cm	|Conductivity|/mS/cm	Phase(Conductivity)/deg	Tan(Delta)	Loss Angle(Delta)/deg	dq/mA.h	
1.9999814E+005	4.6532001E+000	1.9153823E+000	5.0319939E+000	-2.2373383E+001	01/10/2024 22:43:15.5115	-3.3050338E-003	-5.1277587E-003	4.1546908E-001	6.0196251E-002	1.000000000000000E+000	10	9.4048744E-003	1.8690154E-003	0	2.881335296163646E-007	1.8376870E-001	7.5644135E-002	1.9872838E-001	2.2373383E+001	6.0196255E+001	1.4623985E+002	1.5814450E+002	-6.7626617E+001	0.0000000E+000	0.0000000E+000	0.0000000E+000	6.7626617E+001	0.0000000E+000	0.0000000E+000	0.0000000E+000	-6.7626617E+001	0.0000000E+000	0.0000000E+000	0.0000000E+000	-2.2373383E+001	0.0000000E+000	0.0000000E+000	0.0000000E+000	2.2373383E+001	2.4293845E+000	6.7626617E+001	2.881335296163646E-007
1.5885727E+005	4.8536353E+000	2.2566462E+000	5.3525906E+000	-2.4935572E+001	01/10/2024 22:43:16.6445	-3.3354997E-003	-5.4741572E-003	4.4396585E-001	7.8912988E-002	1.000000000000000E+000	10	1.0687741E-002	1.9967416E-003	0	-7.670968527357520E-008	1.6941002E-001	7.8765385E-002	1.8682542E-001	2.4935572E+001	7.8912971E+001	1.6972746E+002	1.8717551E+002	-6.5064430E+001	0.0000000E+000	0.0000000E+000	0.0000000E+000	6.5064430E+001	0.0000000E+000	0.0000000E+000	0.0000000E+000	-6.5064430E+001	0.0000000E+000	0.0000000E+000	0.0000000E+000	-2.4935572E+001	0.0000000E+000	0.0000000E+000	0.0000000E+000	2.4935572E+001	2.1508181E+000	6.5064430E+001	-3.648432148899398E-007
1.2618765E+005	5.0738902E+000	2.6593931E+000	5.7285891E+000	-2.7660517E+001	01/10/2024 22:43:17.7785	-3.3348647E-003	-3.4721282E-003	4.7426465E-001	1.0220931E-001	1.000000000000000E+000	10	1.0938196E-002	1.9094048E-003	0	-9.121125864686392E-007	1.5461290E-001	8.1037723E-002	1.7456305E-001	2.7660517E+001	1.0220931E+002	1.9500645E+002	2.2016872E+002	-6.2339485E+001	0.0000000E+000	0.0000000E+000	0.0000000E+000	6.2339485E+001	0.0000000E+000	0.0000000E+000	0.0000000E+000	-6.2339485E+001	0.0000000E+000	0.0000000E+000	0.0000000E+000	-2.7660517E+001	0.0000000E+000	0.0000000E+000	0.0000000E+000	2.7660517E+001	1.9079129E+000	6.2339485E+001	-8.354029011950640E-007
1.0022640E+005	5.3215089E+000	3.1212215E+000	6.1693177E+000	-3.0392878E+001	01/10/2024 22:43:18.9115	-3.3571678E-003	-4.1947267E-003	5.0876051E-001	1.3022318E-001	1.000000000000000E+000	10	1.0884779E-002	1.7643407E-003	0	3.216207142854627E-006	1.3981718E-001	8.2006887E-002	1.6209248E-001	3.0392878E+001	1.3022318E+002	2.2202328E+002	2.5739545E+002	-5.9607124E+001	0.0000000E+000	0.0000000E+000	0.0000000E+000	5.9607124E+001	0.0000000E+000	0.0000000E+000	0.0000000E+000	-5.9607124E+001	0.0000000E+000	0.0000000E+000	0.0000000E+000	-3.0392878E+001	0.0000000E+000	0.0000000E+000	0.0000000E+000	3.0392878E+001	1.7049443E+000	5.9607124E+001	4.128319729323266E-006
7.9609563E+004	5.6020751E+000	3.6654627E+000	6.6946893E+000	-3.3196903E+001	01/10/2024 22:43:20.0445	-3.3420562E-003	-3.4553797E-003	5.4541373E-001	1.6350192E-001	1.000000000000000E+000	10	1.0725598E-002	1.6021054E-003	0	6.654411684986876E-006	1.2499369E-001	8.1783928E-002	1.4937213E-001	3.3196903E+001	1.6350192E+002	2.4988661E+002	2.9862384E+002	-5.6803097E+001	0.0000000E+000	0.0000000E+000	0.0000000E+000	5.6803097E+001	0.0000000E+000	0.0000000E+000	0.0000000E+000	-5.6803097E+001	0.0000000E+000	0.0000000E+000	0.0000000E+000	-3.3196903E+001	0.0000000E+000	0.0000000E+000	0.0000000E+000	3.3196903E+001	1.5283405E+000	5.6803101E+001	3.438204542132250E-006
6.3233004E+004	5.9171224E+000	4.3054190E+000	7.3177161E+000	-3.6040398E+001	01/10/2024 22:43:21.1775	-3.3386005E-003	-2.4832406E-003	5.8460277E-001	2.0236742E-001	1.000000000000000E+000	10	1.0605644E-002	1.4493107E-003	0	7.752961878050377E-006	1.1049928E-001	8.0401525E-002	1.3665466E-001	3.6040398E+001	2.0236742E+002	2.7812228E+002	3.4395432E+002	-5.3959602E+001	0.0000000E+000	0.0000000E+000	0.0000000E+000	5.3959602E+001	0.0000000E+000	0.0000000E+000	0.0000000E+000	-5.3959602E+001	0.0000000E+000	0.0000000E+000	0.0000000E+000	-3.6040398E+001	0.0000000E+000	0.0000000E+000	0.0000000E+000	3.6040398E+001	1.3743430E+000	5.3959602E+001	1.098550193063501E-006
5.0224539E+004	6.2827191E+000	5.0536509E+000	8.0629988E+000	-3.8812267E+001	01/10/2024 22:43:22.3105	-3.3497708E-003	-3.2784650E-003	6.2704533E-001	2.4632938E-001	1.000000000000000E+000	10	1.0470922E-002	1.2986386E-003	0	7.840598388581484E-006	9.6639454E-002	7.7734187E-002	1.2402333E-001	3.8812267E+001	2.4632939E+002	3.0623770E+002	3.9301361E+002	-5.1187733E+001	0.0000000E+000	0.0000000E+000	0.0000000E+000	5.1187733E+001	0.0000000E+000	0.0000000E+000	0.0000000E+000	-5.1187733E+001	0.0000000E+000	0.0000000E+000	0.0000000E+000	-3.8812267E+001	0.0000000E+000	0.0000000E+000	0.0000000E+000	3.8812267E+001	1.2432040E+000	5.1187729E+001	8.763651053110692E-008
3.9897566E+004	6.6892138E+000	5.9392500E+000	8.9454050E+000	-4.1601379E+001	01/10/2024 22:43:23.4435	-3.3514518E-003	-4.2580650E-003	6.7164862E-001	2.9607746E-001	1.000000000000000E+000	10	1.0360979E-002	1.1582458E-003	0	5.620731864920041E-006	8.3593987E-002	7.4221812E-002	1.1178923E-001	4.1601379E+001	2.9607742E+002	3.3346387E+002	4.4593719E+002	-4.8398621E+001	0.0000000E+000	0.0000000E+000	0.0000000E+000	4.8398621E+001	0.0000000E+000	0.0000000E+000	0.0000000E+000	-4.8398621E+001	0.0000000E+000	0.0000000E+000	0.0000000E+000	-4.1601379E+001	0.0000000E+000	0.0000000E+000	0.0000000E+000	4.1601379E+001	1.1262724E+000	4.8398621E+001	-2.219866523661443E-006
3.1686090E+004	7.1442728E+000	6.9842191E+000	9.9909935E+000	-4.4350956E+001	01/10/2024 22:43:24.5765	-3.3411596E-003	-3.5671366E-003	7.1917337E-001	3.5144064E-001	1.000000000000000E+000	10	1.0186893E-002	1.0196076E-003	0	5.823881811313590E-006	7.1571596E-002	6.9968171E-002	1.0009015E-001	4.4350956E+001	3.5144067E+002	3.5949445E+002	5.0273929E+002	-4.5649044E+001	0.0000000E+000	0.0000000E+000	0.0000000E+000	4.5649044E+001	0.0000000E+000	0.0000000E+000	0.0000000E+000	-4.5649044E+001	0.0000000E+000	0.0000000E+000	0.0000000E+000	-4.4350956E+001	0.0000000E+000	0.0000000E+000	0.0000000E+000	4.4350956E+001	1.0229164E+000	4.5649048E+001	2.031499463935488E-007
2.5172580E+004	7.6679583E+000	8.2550116E+000	1.1266890E+001	-4.7111446E+001	01/10/2024 22:43:25.5745	-3.3404496E-003	-3.6639753E-003	7.6590472E-001	4.1115162E-001	1.000000000000000E+000	10	1.0714707E-002	9.5099071E-004	0	5.521771336879788E-006	6.0404826E-002	6.5029383E-002	8.8755637E-002	4.7111446E+001	4.1115167E+002	3.8191266E+002	5.6116217E+002	-4.2888554E+001	0.0000000E+000	0.0000000E+000	0.0000000E+000	4.2888554E+001	0.0000000E+000	0.0000000E+000	0.0000000E+000	-4.2888554E+001	0.0000000E+000	0.0000000E+000	0.0000000E+000	-4.7111446E+001	0.0000000E+000	0.0000000E+000	0.0000000E+000	4.7111446E+001	9.2888522E-001	4.2888550E+001	-3.021104744338017E-007
1.9995176E+004	8.2488089E+000	9.8085012E+000	1.2815988E+001	-4.9936646E+001	01/10/2024 22:43:26.5715	-3.3366766E-003	-3.8725657E-003	8.1150693E-001	4.7532800E-001	1.000000000000000E+000	10	1.0631254E-002	8.2953059E-004	0	5.552195832417864E-006	5.0221197E-002	5.9717067E-002	7.8027539E-002	4.9936646E+001	4.7532797E+002	3.9974402E+002	6.2107324E+002	-4.0063354E+001	0.0000000E+000	0.0000000E+000	0.0000000E+000	4.0063354E+001	0.0000000E+000	0.0000000E+000	0.0000000E+000	-4.0063354E+001	0.0000000E+000	0.0000000E+000	0.0000000E+000	-4.9936646E+001	0.0000000E+000	0.0000000E+000	0.0000000E+000	4.9936646E+001	8.4098566E-001	4.0063354E+001	3.042449553807617E-008
1.5884798E+004	8.9948883E+000	1.1696169E+001	1.4754944E+001	-5.2438072E+001	01/10/2024 22:43:27.5685	-3.3512090E-003	-3.5243132E-003	8.5663301E-001	5.3827840E-001	1.000000000000000E+000	10	1.0333841E-002	7.0036465E-004	0	5.678485302015259E-006	4.1316222E-002	5.3724021E-002	6.7773893E-002	5.2438072E+001	5.3827832E+002	4.1396063E+002	6.7904858E+002	-3.7561928E+001	0.0000000E+000	0.0000000E+000	0.0000000E+000	3.7561928E+001	0.0000000E+000	0.0000000E+000	0.0000000E+000	-3.7561928E+001	0.0000000E+000	0.0000000E+000	0.0000000E+000	-5.2438072E+001	0.0000000E+000	0.0000000E+000	0.0000000E+000	5.2438072E+001	7.6904571E-001	3.7561920E+001	1.262894695973952E-007
1.2618766E+004	9.9140644E+000	1.4003845E+001	1.7157982E+001	-5.4703300E+001	01/10/2024 22:43:28.5655	-3.3457547E-003	-4.2077955E-003	9.0064991E-001	5.9995431E-001	1.000000000000000E+000	10	1.0008976E-002	5.8334228E-004	0	5.496213597292403E-006	3.3675909E-002	4.7568001E-002	5.8281913E-002	5.4703300E+001	5.9995428E+002	4.2473944E+002	7.3508417E+002	-3.5296700E+001	0.0000000E+000	0.0000000E+000	0.0000000E+000	3.5296700E+001	0.0000000E+000	0.0000000E+000	0.0000000E+000	-3.5296700E+001	0.0000000E+000	0.0000000E+000	0.0000000E+000	-5.4703300E+001	0.0000000E+000	0.0000000E+000	0.0000000E+000	5.4703300E+001	7.0795304E-001	3.5296692E+001	-1.822717047228560E-007
1.0020785E+004	1.1005923E+001	1.6611073E+001	1.9926315E+001	-5.6472919E+001	01/10/2024 22:43:29.5635	-3.3498828E-003	-3.2188918E-003	9.5613831E-001	6.6444963E-001	1.000000000000000E+000	10	9.7019486E-003	4.8689125E-004	0	4.739982677361695E-006	2.7718676E-002	4.1835375E-002	5.0184894E-002	5.6472919E+001	6.6444958E+002	4.4024136E+002	7.9706067E+002	-3.3527081E+001	0.0000000E+000	0.0000000E+000	0.0000000E+000	3.3527081E+001	0.0000000E+000	0.0000000E+000	0.0000000E+000	-3.3527081E+001	0.0000000E+000	0.0000000E+000	0.0000000E+000	-5.6472919E+001	0.0000000E+000	0.0000000E+000	0.0000000E+000	5.6472919E+001	6.6256547E-001	3.3527084E+001	-7.562309199307085E-007
7.9597607E+003	1.2650828E+001	2.0050573E+001	2.3707993E+001	-5.7750286E+001	01/10/2024 22:43:30.7177	-3.2758566E-003	1.0232867E-002	9.9722540E-001	7.1327555E-001	1.000000000000000E+000	10	9.5087877E-003	4.0107942E-004	0	7.437849557205077E-006	2.2507612E-002	3.5672799E-002	4.2179868E-002	5.7750286E+001	7.1327551E+002	4.5003833E+002	8.4338391E+002	-3.2249714E+001	0.0000000E+000	0.0000000E+000	0.0000000E+000	3.2249714E+001	0.0000000E+000	0.0000000E+000	0.0000000E+000	-3.2249714E+001	0.0000000E+000	0.0000000E+000	0.0000000E+000	-5.7750286E+001	0.0000000E+000	0.0000000E+000	0.0000000E+000	5.7750286E+001	6.3094598E-001	3.2249710E+001	2.697866879843382E-006
6.3238188E+003	1.4637331E+001	2.4047590E+001	2.8152052E+001	-5.8671886E+001	01/10/2024 22:43:32.1303	-3.2378070E-003	7.1990946E-003	1.0465721E+000	7.6364613E-001	1.000000000000000E+000	10	9.3742013E-003	3.3298467E-004	0	1.053109388121569E-005	1.8468931E-002	3.0342504E-002	3.5521388E-002	5.8671886E+001	7.6364618E+002	4.6481750E+002	8.9398590E+002	-3.1328114E+001	0.0000000E+000	0.0000000E+000	0.0000000E+000	3.1328114E+001	0.0000000E+000	0.0000000E+000	0.0000000E+000	-3.1328114E+001	0.0000000E+000	0.0000000E+000	0.0000000E+000	-5.8671886E+001	0.0000000E+000	0.0000000E+000	0.0000000E+000	5.8671886E+001	6.0868180E-001	3.1328110E+001	3.093244324010609E-006
5.0216069E+003	1.7338045E+001	2.8503357E+001	3.3362392E+001	-5.8688652E+001	01/10/2024 22:43:33.8327	-3.1558422E-003	1.0750597E-002	1.1119401E+000	8.1163180E-001	1.000000000000000E+000	10	9.2670331E-003	2.7776885E-004	0	1.560826715748408E-005	1.5577070E-002	2.5608353E-002	2.9973870E-002	5.8688652E+001	8.1163184E+002	4.9370007E+002	9.4999261E+002	-3.1311348E+001	0.0000000E+000	0.0000000E+000	0.0000000E+000	3.1311348E+001	0.0000000E+000	0.0000000E+000	0.0000000E+000	-3.1311348E+001	0.0000000E+000	0.0000000E+000	0.0000000E+000	-5.8688652E+001	0.0000000E+000	0.0000000E+000	0.0000000E+000	5.8688652E+001	6.0828084E-001	3.1311340E+001	5.077173276268394E-006
3.9861731E+003	2.1007858E+001	3.3674431E+001	3.9690018E+001	-5.8041943E+001	01/10/2024 22:43:35.7899	-3.2320165E-003	3.8982616E-004	1.1856698E+000	8.5349637E-001	1.000000000000000E+000	11	1.0495796E-002	2.6444421E-004	0	1.788228353057639E-005	1.3335804E-002	2.1376554E-002	2.5195252E-002	5.8041943E+001	8.5349640E+002	5.3245538E+002	1.0059646E+003	-3.1958057E+001	0.0000000E+000	0.0000000E+000	0.0000000E+000	3.1958057E+001	0.0000000E+000	0.0000000E+000	0.0000000E+000	-3.1958057E+001	0.0000000E+000	0.0000000E+000	0.0000000E+000	-5.8041943E+001	0.0000000E+000	0.0000000E+000	0.0000000E+000	5.8041943E+001	6.2385190E-001	3.1958054E+001	2.274016373092307E-006
3.1669595E+003	2.5561317E+001	3.9221493E+001	4.6815666E+001	-5.6907024E+001	01/10/2024 22:43:37.4920	-3.2266553E-003	3.8703156E-004	1.2813079E+000	8.9933050E-001	1.000000000000000E+000	11	9.9851349E-003	2.1328618E-004	0	1.792312527201809E-005	1.1662747E-002	1.7895414E-002	2.1360371E-002	5.6907024E+001	8.9933051E+002	5.8610907E+002	1.0734613E+003	-3.3092976E+001	0.0000000E+000	0.0000000E+000	0.0000000E+000	3.3092976E+001	0.0000000E+000	0.0000000E+000	0.0000000E+000	-3.3092976E+001	0.0000000E+000	0.0000000E+000	0.0000000E+000	-5.6907024E+001	0.0000000E+000	0.0000000E+000	0.0000000E+000	5.6907024E+001	6.5171713E-001	3.3092972E+001	4.084174144170841E-008
2.5158047E+003	3.1192822E+001	4.5209385E+001	5.4926136E+001	-5.5395744E+001	01/10/2024 22:43:39.1947	-3.2140468E-003	3.6914702E-004	1.3993123E+000	9.4801176E-001	1.000000000000000E+000	11	9.6538365E-003	1.7576035E-004	0	1.822507520827963E-005	1.0339429E-002	1.4985474E-002	1.8206269E-002	5.5395744E+001	9.4801160E+002	6.5409332E+002	1.1517656E+003	-3.4604256E+001	0.0000000E+000	0.0000000E+000	0.0000000E+000	3.4604256E+001	0.0000000E+000	0.0000000E+000	0.0000000E+000	-3.4604256E+001	0.0000000E+000	0.0000000E+000	0.0000000E+000	-5.5395744E+001	0.0000000E+000	0.0000000E+000	0.0000000E+000	5.5395744E+001	6.8996340E-001	3.4604248E+001	3.019499362615311E-007
1.9980818E+003	3.8236813E+001	5.1268692E+001	6.3957272E+001	-5.3283978E+001	01/10/2024 22:43:40.8980	-3.2260576E-003	3.1214152E-004	1.5536551E+000	9.9834180E-001	1.000000000000000E+000	11	9.4598699E-003	1.4790922E-004	0	1.849568487798953E-005	9.3476363E-003	1.2533500E-002	1.5635438E-002	5.3283978E+001	9.9834180E+002	7.4457544E+002	1.2454232E+003	-3.6716022E+001	0.0000000E+000	0.0000000E+000	0.0000000E+000	3.6716022E+001	0.0000000E+000	0.0000000E+000	0.0000000E+000	-3.6716022E+001	0.0000000E+000	0.0000000E+000	0.0000000E+000	-5.3283978E+001	0.0000000E+000	0.0000000E+000	0.0000000E+000	5.3283978E+001	7.4581212E-001	3.6716019E+001	2.706096697099083E-007
1.5884750E+003	4.6364098E+001	5.7217461E+001	7.3644196E+001	-5.0981674E+001	01/10/2024 22:43:42.6000	-3.2269356E-003	2.6463845E-004	1.7511010E+000	1.0570396E+000	1.000000000000000E+000	11	9.3197869E-003	1.2655155E-004	0	1.869707698300287E-005	8.5487925E-003	1.0549977E-002	1.3578802E-002	5.0981674E+001	1.0570397E+003	8.5653381E+002	1.3605084E+003	-3.9018326E+001	0.0000000E+000	0.0000000E+000	0.0000000E+000	3.9018326E+001	0.0000000E+000	0.0000000E+000	0.0000000E+000	-3.9018326E+001	0.0000000E+000	0.0000000E+000	0.0000000E+000	-5.0981674E+001	0.0000000E+000	0.0000000E+000	0.0000000E+000	5.0981674E+001	8.1031382E-001	3.9018326E+001	2.013921050133348E-007
1.2604036E+003	5.5775795E+001	6.2985626E+001	8.4131615E+001	-4.8474079E+001	01/10/2024 22:43:44.2997	-3.2265061E-003	3.1176856E-004	2.0047908E+000	1.1236564E+000	1.000000000000000E+000	11	9.2384322E-003	1.0980928E-004	0	1.883581956867298E-005	7.8800200E-003	8.8986270E-003	1.1886138E-002	4.8474079E+001	1.1236564E+003	9.9503387E+002	1.5008984E+003	-4.1525921E+001	0.0000000E+000	0.0000000E+000	0.0000000E+000	4.1525921E+001	0.0000000E+000	0.0000000E+000	0.0000000E+000	-4.1525921E+001	0.0000000E+000	0.0000000E+000	0.0000000E+000	-4.8474079E+001	0.0000000E+000	0.0000000E+000	0.0000000E+000	4.8474079E+001	8.8553214E-001	4.1525925E+001	1.387425856701139E-007
1.0016024E+003	6.5989143E+001	6.8325882E+001	9.4989433E+001	-4.5996700E+001	01/10/2024 22:43:45.9974	-3.2298870E-003	3.9708725E-004	2.3256242E+000	1.2032598E+000	1.000000000000000E+000	11	9.1810143E-003	9.6653006E-005	0	1.897768941023545E-005	7.3134429E-003	7.5724190E-003	1.0527487E-002	4.5996700E+001	1.2032599E+003	1.1621084E+003	1.6728210E+003	-4.4003300E+001	0.0000000E+000	0.0000000E+000	0.0000000E+000	4.4003300E+001	0.0000000E+000	0.0000000E+000	0.0000000E+000	-4.4003300E+001	0.0000000E+000	0.0000000E+000	0.0000000E+000	-4.5996700E+001	0.0000000E+000	0.0000000E+000	0.0000000E+000	4.5996700E+001	9.6580011E-001	4.4003296E+001	1.418698415624642E-007
7.9525409E+002	7.7066444E+001	7.3200333E+001	1.0628982E+002	-4.3526199E+001	01/10/2024 22:43:47.6987	-3.2236481E-003	2.9816903E-004	2.7340167E+000	1.2967132E+000	1.000000000000000E+000	11	9.1404701E-003	8.5995729E-005	0	1.923631399811226E-005	6.8215337E-003	6.4793243E-003	9.4082393E-003	4.3526199E+001	1.2967133E+003	1.3652000E+003	1.8828798E+003	-4.6473801E+001	0.0000000E+000	0.0000000E+000	0.0000000E+000	4.6473801E+001	0.0000000E+000	0.0000000E+000	0.0000000E+000	-4.6473801E+001	0.0000000E+000	0.0000000E+000	0.0000000E+000	-4.3526199E+001	0.0000000E+000	0.0000000E+000	0.0000000E+000	4.3526199E+001	1.0528154E+000	4.6473801E+001	2.586245878768137E-007
6.3181964E+002	8.8629105E+001	7.7487717E+001	1.1772623E+002	-4.1162941E+001	01/10/2024 22:43:49.3952	-3.2261510E-003	2.8717800E-004	3.2508292E+000	1.4083592E+000	1.000000000000000E+000	11	9.1136144E-003	7.7413628E-005	0	1.940134453103059E-005	6.3948436E-003	5.5909604E-003	8.4942840E-003	4.1162941E+001	1.4083591E+003	1.6108567E+003	2.1397043E+003	-4.8837059E+001	0.0000000E+000	0.0000000E+000	0.0000000E+000	4.8837059E+001	0.0000000E+000	0.0000000E+000	0.0000000E+000	-4.8837059E+001	0.0000000E+000	0.0000000E+000	0.0000000E+000	-4.1162941E+001	0.0000000E+000	0.0000000E+000	0.0000000E+000	4.1162941E+001	1.1437826E+000	4.8837067E+001	1.650305329183323E-007
